# HZ S RI R 50
1000000000 -0.021420828601264125 -0.019385080129721257
1005478088 -0.022263351979928358 -0.01985876551568747
1010956176 -0.02277147604698063 -0.02032028021955052
1016434264 -0.023445738224371983 -0.02059710395929003
1021912352 -0.0235241223809952 -0.020698132224482198
1027390440 -0.024423577698365423 -0.021487530055201765
1032868528 -0.025123563093611995 -0.021346697715984117
1038346616 -0.025555507064209566 -0.021900401929034818
1043824704 -0.02607144167185651 -0.022209587933835734
1049302792 -0.02688976167976789 -0.02228527357356523
1054780880 -0.02722054552074585 -0.022611502809378847
1060258968 -0.028210276626100022 -0.022697346012402805
1065737056 -0.028550376814475593 -0.023135110811669194
1071215144 -0.02931553097305263 -0.023152788161873532
1076693232 -0.03006770097861263 -0.023242804038134703
1082171320 -0.030982304585913133 -0.0234337337439751
1087649408 -0.031240072831558496 -0.023552085857802784
1093127496 -0.03194615789278237 -0.023505801645571787
1098605584 -0.03310149708914363 -0.023417402506720177
1104083672 -0.033965648066582386 -0.023567947219086435
1109561760 -0.03431215530754779 -0.023294784512800086
1115039848 -0.035505056489398 -0.023348597819933828
1120517936 -0.03634310000277567 -0.02300891480074673
1125996024 -0.037733556583823366 -0.022858070688369474
1131474112 -0.03795840399569658 -0.02322545353656058
1136952200 -0.038988799765937006 -0.022859421788546382
1142430288 -0.03993622476273812 -0.022486520736324008
1147908376 -0.0410171700910824 -0.02269009657871958
1153386464 -0.04200540852071746 -0.022350749545472604
1158864552 -0.04262550973298104 -0.021946376538974032
1164342640 -0.04372393055844653 -0.021771352400967444
1169820728 -0.0449582153497533 -0.022107040970381873
1175298816 -0.045046249039645686 -0.021395722582509907
1180776904 -0.0466864310537541 -0.021414399357893008
1186254992 -0.04749242056560954 -0.02035938777819409
1191733080 -0.04857123637524532 -0.02044899132389572
1197211168 -0.0492733328960446 -0.019836698063432193
1202689256 -0.05059683497163632 -0.019792940451064445
1208167344 -0.05132225868135676 -0.01896875532877047
1213645432 -0.05197223701776106 -0.01876370909918604
1219123520 -0.05315632900606878 -0.018004364561207246
1224601608 -0.053905916333908496 -0.017428998868762115
1230079696 -0.05468276993271561 -0.017346702850187457
1235557784 -0.05606782448168147 -0.015865499862602845
1241035872 -0.05663885798065644 -0.015778345195538248
1246513960 -0.0575680680848288 -0.01494560204415469
1251992048 -0.058236713273383846 -0.013994842328315334
1257470136 -0.05878918480643356 -0.013842779292291772
1262948224 -0.0595910910588715 -0.012591476186613621
1268426312 -0.060564131877443035 -0.011967519731509136
1273904400 -0.061177036580548426 -0.011076151199468786
1279382488 -0.06253224520914237 -0.009640668530921685
1284860576 -0.06293184243992037 -0.009327033439120171
1290338664 -0.06349941603207081 -0.008350827754808995
1295816752 -0.06468040710624116 -0.007438109645053565
1301294840 -0.06501130208112393 -0.006302387494122661
1306772928 -0.06554117267234894 -0.00533784206525307
1312251016 -0.06608981469807697 -0.004406585689161437
1317729104 -0.06661642315509816 -0.0030900330587423567
1323207192 -0.06717053086308085 -0.0025415480567461605
1328685280 -0.0676765035475545 -0.0014987770071674296
1334163368 -0.06841409838597659 -0.0004775787428336252
1339641456 -0.06847108677012617 0.0012135418164893174
1345119544 -0.06882675366159621 0.0018639847518854371
1350597632 -0.06881113634206477 0.0033477208309700885
1356075720 -0.06921887384514597 0.004721241132181244
1361553808 -0.06989250523037273 0.006356516624429058
1367031896 -0.06995954681996785 0.008140977085810417
1372509984 -0.07001105349316306 0.008532956573687423
1377988072 -0.07092001608271073 0.010794695031711977
1383466160 -0.07091021996304796 0.01155829954336667
1388944248 -0.07057771711525175 0.013223720492578486
1394422336 -0.07086179262994236 0.014362518590756546
1399900424 -0.07084764091087403 0.015484587921018984
1405378512 -0.07171523068308494 0.017510436418367713
1410856600 -0.07120605311837241 0.01848612210085255
1416334688 -0.0717456096949608 0.02002459172860674
1421812776 -0.0709027484496345 0.0213645779183794
1427290864 -0.07201413539934418 0.02270022431162888
1432768952 -0.07081158486088096 0.024631765433928705
1438247040 -0.07104636366300583 0.02535530628231661
1443725128 -0.07127974899054647 0.02679713011953646
1449203216 -0.07073371448902502 0.02853508458014683
1454681304 -0.07062430519658602 0.02974619652216349
1460159392 -0.07009183305189697 0.03131578663928775
1465637480 -0.0700047566242802 0.032246665643549874
1471115568 -0.06933173058229954 0.03436870168232258
1476593656 -0.0689280407048043 0.03565711695571754
1482071744 -0.0684670789519054 0.037489711293789196
1487549832 -0.06819695282164473 0.03812161606261789
1493027920 -0.06741493727676896 0.04006833813453877
1498506008 -0.06717433639154997 0.041177375312606
1503984096 -0.06651242187647277 0.04186992074551468
1509462184 -0.06598096657353819 0.04413767276334194
1514940272 -0.06504348249550111 0.04503641758227603
1520418360 -0.06449277186329477 0.04691050228172105
1525896448 -0.06378909755713293 0.04753480995471281
1531374536 -0.06302381170861926 0.048785367090880244
1536852624 -0.06197553252648134 0.05053039106570698
1542330712 -0.06101109347855795 0.05091753397440413
1547808800 -0.06041036004251997 0.05280725999475675
1553286888 -0.0593337063339955 0.05403471840333867
1558764976 -0.05845083651647823 0.054879840260116185
1564243064 -0.05674537582628659 0.055987008319627975
1569721152 -0.05637223738002363 0.057129317450605725
1575199240 -0.05575008477014653 0.05761532073955121
1580677328 -0.053849466487033815 0.05908818623503777
1586155416 -0.0524506691751121 0.059960897073103286
1591633504 -0.05122838426173987 0.06037130414870968
1597111592 -0.04917744296930277 0.06182498087942203
1602589680 -0.048054271066287145 0.062463359093042965
1608067768 -0.04661731816636571 0.06350360379070738
1613545856 -0.04515734453372042 0.06400683745802238
1619023944 -0.04353009636003712 0.0650604792980816
1624502032 -0.04211685600838261 0.06615227218758597
1629980120 -0.040337184606085916 0.06600292794273348
1635458208 -0.03907759197478794 0.06731234084743545
1640936296 -0.03769757860068754 0.06763173478665843
1646414384 -0.036356821933203644 0.06875800527908206
1651892472 -0.03443629855318631 0.0690438651069285
1657370560 -0.03291074359879509 0.0700694719896279
1662848648 -0.03174259505791837 0.07038423908747873
1668326736 -0.029895670525706824 0.0706863081391835
1673804824 -0.028175156644264742 0.07102489723106277
1679282912 -0.025899962943438822 0.07092498691486242
1684761000 -0.024775000434089547 0.07129843766277044
1690239088 -0.023971579507566433 0.07234491506503957
1695717176 -0.02167488227038714 0.07234850482571703
1701195264 -0.020123157231772805 0.0724671037310026
1706673352 -0.01856533812906538 0.07278012861672394
1712151440 -0.01716892746486276 0.07263028219452827
1717629528 -0.015069034578171374 0.07228168902982085
1723107616 -0.013744907209234032 0.07216562262645895
1728585704 -0.011745160397997084 0.07216112628617025
1734063792 -0.00984320559529919 0.07276199717970491
1739541880 -0.008666033169848954 0.07242651540447269
1745019968 -0.008108355246432776 0.07135785961740362
1750498056 -0.005791307975845827 0.07156629826654433
1755976144 -0.00358391221395838 0.07147937819001018
1761454232 -0.001670370483442718 0.07163510164550543
1766932320 -0.0008024158519305976 0.07048224710208233
1772410408 0.0005854784847981368 0.07031025979529883
1777888496 0.0029329880166346143 0.07025507373805837
1783366584 0.003850220874868936 0.06877549275757237
1788844672 0.005510828843531252 0.06877176403118514
1794322760 0.007218611538550954 0.06792546245445936
1799800848 0.008355962541204113 0.06749041840516248
1805278936 0.010079484806764292 0.06575652694579893
1810757024 0.011038281080796443 0.06602723572372175
1816235112 0.012059060412452822 0.0653077725569905
1821713200 0.013831603902135612 0.06357264808675252
1827191288 0.015071652260240546 0.06282409177045387
1832669376 0.016273275816620598 0.06213315138730584
1838147464 0.017900468713091682 0.06057629044819599
1843625552 0.018617847896937528 0.05962120310418931
1849103640 0.02187567207862121 0.05835514280353363
1854581728 0.021546416218996913 0.057381444023280305
1860059816 0.02261326622199954 0.05556562761054007
1865537904 0.025524708950663694 0.05396533115715916
1871015992 0.02513248471874997 0.052821864731440016
1876494080 0.02676234936232733 0.05178097404536182
1881972168 0.02840699389966308 0.05040063369154976
1887450256 0.028922249068409813 0.04893160977000518
1892928344 0.030090623628171102 0.048020041960445556
1898406432 0.03066133547171231 0.04588360144119297
1903884520 0.032047355200250226 0.045119025225952215
1909362608 0.033123995520373054 0.04319476263560116
1914840696 0.033453261904154416 0.04254210088209766
1920318784 0.033811567745029816 0.03977191948395616
1925796872 0.03523161452243154 0.03873778213745244
1931274960 0.035705702299268886 0.03702033170074215
1936753048 0.03626711906586906 0.0350284167357108
1942231136 0.0367952332893506 0.034455654024629315
1947709224 0.03736729093978959 0.03269519327650377
1953187312 0.03798369753193217 0.030375974189099316
1958665400 0.03837193696163691 0.029517878569763293
1964143488 0.03905383060493124 0.027754701288148005
1969621576 0.03942459992142988 0.02591300497725341
1975099664 0.03932067548773008 0.024761603984661342
1980577752 0.0396808215888223 0.02270378132512095
1986055840 0.03933101994843293 0.021582953464839644
1991533928 0.03959900099026074 0.019701261782182268
1997012016 0.03946973916458392 0.01851613553470031
2002490104 0.039837705001922706 0.017192212408313295
2007968192 0.03897548608762404 0.015388225834117739
2013446280 0.0397289715809058 0.013759743168965858
2018924368 0.0391837563050144 0.012366261111081953
2024402456 0.03856979233465721 0.010555514685011858
2029880544 0.03834834825005905 0.009218148419460495
2035358632 0.03757553173983809 0.0073873284845433086
2040836720 0.037748058073039124 0.006363636321219201
2046314808 0.036948502858819884 0.004622780869927825
2051792896 0.036646149639861805 0.002897330908841236
2057270984 0.036047465408826286 0.0021743982796505884
2062749072 0.03520669849584932 6.348571931518141e-05
2068227160 0.03412940758758686 -0.0014802727179189202
2073705248 0.03311317378172841 -0.00284886410212415
2079183336 0.03232864772911256 -0.004559138627841956
2084661424 0.03167681115361955 -0.005911909782205576
2090139512 0.030788816562913386 -0.008182475183563088
2095617600 0.029427912447485886 -0.00850370777357897
2101095688 0.029051237973248312 -0.010198370020371252
2106573776 0.027901527021216295 -0.012100838012981516
2112051864 0.02594856180931011 -0.011651598011546384
2117529952 0.02620561078322162 -0.014567580987874052
2123008040 0.024604272112559288 -0.015318484403477635
2128486128 0.02306776299870161 -0.01608876140801249
2133964216 0.022716747744833853 -0.017182089958543277
2139442304 0.021668587799998078 -0.018395954088929474
2144920392 0.020274939362504796 -0.018967935200922287
2150398480 0.01810689469303076 -0.02050664797785006
2155876568 0.01787727521966498 -0.021139001110203354
2161354656 0.014994939318480947 -0.02187665387859261
2166832744 0.014658922096786677 -0.02270936411453847
2172310832 0.012744396062206712 -0.023689459279787987
2177788920 0.013101508152912967 -0.023679965289537797
2183267008 0.009942411050681022 -0.02507269922116672
2188745096 0.00870104367222225 -0.024880632404650483
2194223184 0.007538707433532986 -0.025471815483716437
2199701272 0.005932378884430894 -0.026693121272466407
2205179360 0.0047744473470800325 -0.026618691045817607
2210657448 0.0033024819180708007 -0.027450568849155102
2216135536 0.0017982492090485923 -0.027635438432259383
2221613624 0.00038001064214839334 -0.027080790434270113
2227091712 -0.0013700243017652006 -0.02735871810272297
2232569800 -0.0026881753070120773 -0.027525586185050282
2238047888 -0.004207500505107622 -0.0282288307627125
2243525976 -0.0057842958473151825 -0.02720014344029907
2249004064 -0.006993049100908589 -0.027328196380244047
2254482152 -0.00848182325188588 -0.027347422231759688
2259960240 -0.009834091494604024 -0.02774231450211706
2265438328 -0.012336831182803659 -0.025899161554231404
2270916416 -0.013805615042257255 -0.025871223138009693
2276394504 -0.014536699970277563 -0.02567182210886243
2281872592 -0.017758121888781238 -0.02472873655508507
2287350680 -0.018564033231805086 -0.02423244975996422
2292828768 -0.019640592833590813 -0.02384464903522683
2298306856 -0.020567656073687806 -0.023250580145481304
2303784944 -0.022290123021679813 -0.022442760866055175
2309263032 -0.02298365758013311 -0.02138938363584686
2314741120 -0.026016043276331075 -0.021197819230644368
2320219208 -0.0266472858257291 -0.020008986035765446
2325697296 -0.028828235922918544 -0.0197608718501643
2331175384 -0.029153676174478095 -0.018286183349725458
2336653472 -0.031418955538876574 -0.018168004260883882
2342131560 -0.031661484637000296 -0.016180390635721
2347609648 -0.03303807227889668 -0.015003500354226177
2353087736 -0.034326797402715735 -0.014160202071946565
2358565824 -0.03567960044533416 -0.013352533033235034
2364043912 -0.036396013441553854 -0.012807103952507745
2369522000 -0.037673953556596175 -0.010331080332224494
2375000088 -0.038041209963104096 -0.010870058400926263
2380478176 -0.0395088641773744 -0.008852618918485418
2385956264 -0.03994569016782917 -0.007392714773124615
2391434352 -0.04088719108896465 -0.006021894269644169
2396912440 -0.04219838764122778 -0.0038279715655928637
2402390528 -0.04233786112399742 -0.003333652823058093
2407868616 -0.0426674023234635 -0.0021653112853785993
2413346704 -0.043363324782971564 -0.00033657712279315467
2418824792 -0.042320633856705966 0.0004058106844632433
2424302880 -0.04394836670374562 0.002443012370572095
2429780968 -0.04556271870850551 0.004289846519461124
2435259056 -0.044376700063771465 0.005871741594813594
2440737144 -0.046132257277661765 0.006971373460992653
2446215232 -0.04569410317265968 0.008969339853599007
2451693320 -0.04586198360658044 0.010729440273210183
2457171408 -0.04654826590319227 0.011691313815525657
2462649496 -0.04520114708834087 0.01369474901653108
2468127584 -0.04584509832323531 0.015088445319313767
2473605672 -0.04610380198425248 0.015837887504558296
2479083760 -0.04439932572674841 0.020280294820109023
2484561848 -0.04475324632918616 0.02052956117390751
2490039936 -0.04502537139511407 0.021509482219828714
2495518024 -0.043860891694068004 0.024375967056352615
2500996112 -0.043625414679931016 0.026141105018943886
2506474200 -0.04343923039262598 0.02702182860019966
2511952288 -0.0430188381660397 0.02933236216165581
2517430376 -0.04172493271008074 0.03010247061520915
2522908464 -0.04165990008806713 0.03319192866041759
2528386552 -0.04083277689501268 0.034554966333536594
2533864640 -0.040017424864431224 0.03579371866298172
2539342728 -0.03922775790246144 0.03718695551012113
2544820816 -0.03855495454880559 0.039557286244924696
2550298904 -0.036938461338531584 0.03963141763023476
2555776992 -0.03651397201496816 0.04190652566258317
2561255080 -0.036791523531088915 0.04413412624133004
2566733168 -0.033579670349168964 0.04478872534241065
2572211256 -0.03363366597537277 0.04710518615543846
2577689344 -0.03304352846533391 0.04771998601943233
2583167432 -0.031487301803220624 0.04916352511240014
2588645520 -0.028850891410804446 0.05018884067682348
2594123608 -0.026318677974147418 0.05203825597044237
2599601696 -0.027291222017016992 0.05222415909929897
2605079784 -0.02612404916469611 0.05410369662068634
2610557872 -0.023305903868344937 0.05528981421028297
2616035960 -0.02294589528855288 0.05678208752156791
2621514048 -0.02016223169982388 0.05710675608603271
2626992136 -0.019876513675906947 0.0574808114561094
2632470224 -0.017022846800356456 0.05983147769661286
2637948312 -0.015599935745534357 0.05945895544003461
2643426400 -0.013805329393063621 0.060733388484450083
2648904488 -0.011444892867285152 0.06095073985159834
2654382576 -0.010229393878620019 0.06201569415290659
2659860664 -0.008395449865561068 0.061190067433571874
2665338752 -0.006407633670035819 0.06350755759904517
2670816840 -0.0040978770401351935 0.06264391290074246
2676294928 -0.0027058874631721483 0.06286404310785541
2681773016 -0.0005040881675694859 0.06363602326866871
2687251104 0.0018459075516619756 0.06354156642497616
2692729192 0.003276884029264365 0.06417290103229482
2698207280 0.005965017641247284 0.06365317924452223
2703685368 0.007524937613748951 0.06408087579995854
2709163456 0.008514763210916619 0.06387392975515073
2714641544 0.011652003779913942 0.06349172867524916
2720119632 0.014179397981481623 0.06376148669060902
2725597720 0.016410756631839774 0.06307699255446321
2731075808 0.017925343734265527 0.0621833447181429
2736553896 0.021546887866897714 0.062460070849513105
2742031984 0.024241630288051607 0.0624439749557566
2747510072 0.02462017127594682 0.06040012382384785
2752988160 0.02905299599438475 0.060893970971164724
2758466248 0.03059568695511723 0.05948362988339098
2763944336 0.034035120425255964 0.06089574010254844
2769422424 0.03494916239699145 0.05863433847830195
2774900512 0.03736701209938575 0.059446177801328846
2780378600 0.03993283517681666 0.05864617269609292
2785856688 0.04116266002189399 0.057471188433366883
2791334776 0.04289282852695802 0.05630398410521276
2796812864 0.04563165269809586 0.05425271226751269
2802290952 0.047129954934319665 0.05437693365000717
2807769040 0.04912969947704415 0.0529577879507065
2813247128 0.05205587514954272 0.05063972876547297
2818725216 0.05316515315020208 0.04918089860054428
2824203304 0.055120842782426197 0.048311871681814
2829681392 0.05666697738426113 0.04747547540983344
2835159480 0.0587589200956555 0.044873078149944776
2840637568 0.059499797392880166 0.04375884019414801
2846115656 0.06272142127447775 0.041022631013028416
2851593744 0.06438900230642453 0.03960554221251723
2857071832 0.06476552062130371 0.038242712636002096
2862549920 0.06615796990489513 0.0361809045569416
2868028008 0.06765059665540749 0.03482098371777165
2873506096 0.06926227136828657 0.03308401223199929
2878984184 0.0708181435294382 0.030460143672530183
2884462272 0.07226431882888215 0.028670053275635956
2889940360 0.07284082966018651 0.0262069155345175
2895418448 0.07452507020614722 0.02430388999233218
2900896536 0.07457570421227934 0.021428221550006548
2906374624 0.07663573282036702 0.019313861076274308
2911852712 0.07770820648269636 0.017441278430316794
2917330800 0.07852127084726523 0.016134602905841868
2922808888 0.07879247581947889 0.011982726426707791
2928286976 0.0795284890263415 0.009186767524750141
2933765064 0.07983490275732884 0.007979510125946658
2939243152 0.08031954826448748 0.005000965634680924
2944721240 0.08141013315139917 0.0017051300486878949
2950199328 0.08099282684022117 -0.0007182298022395461
2955677416 0.08171646833716577 -0.0035835834925344446
2961155504 0.0821614138023444 -0.0062340598033586376
2966633592 0.08248633526782342 -0.010062031703326833
2972111680 0.08120554886121195 -0.011165338741375498
2977589768 0.08403400165264083 -0.015095312609623612
2983067856 0.08328111094706442 -0.01781642242821313
2988545944 0.08243628984681207 -0.019818129910769904
2994024032 0.08309586541418686 -0.02328099253249372
2999502120 0.08344907529543105 -0.026112018449068814
3004980208 0.08455713384654824 -0.027994423775216284
3010458296 0.08169175903023668 -0.032140061894784015
3015936384 0.08243921353497281 -0.03330373204389227
3021414472 0.08149159994322684 -0.036623298444976075
3026892560 0.08101229601197495 -0.03942895667701304
3032370648 0.07983555210714542 -0.042231944429392015
3037848736 0.08026162740911234 -0.04380446457839999
3043326824 0.07838610647724677 -0.047873304922352186
3048804912 0.07693279203860064 -0.051617959269596225
3054283000 0.07776072256586733 -0.051487741558521885
3059761088 0.07581434485048055 -0.05604056266457071
3065239176 0.07505954560307254 -0.057635633140786006
