! TOUCHSTONE file generated by CST MICROWAVE STUDIO
! Date and time: Mon May 25 13:26:51 2026
! Project name: SMA_Coupon5.cst
! Header version: 2024
! Port assignment regex: !\s*Touchstone port\s*([0-9]+)\s*=\s*(CST MWS port|CST DES external port|CST DES block port)\s*(.+)\s* \(\"(.*)\"\)(\s*mode\s*([0-9]+))?.*
! Touchstone port assignment:
! Touchstone port 1 = CST MWS port 1 ("")
! Touchstone port 2 = CST MWS port 2 ("")
# GHz S MA R 50
1                      0.0116271        120.9921        0.9814129       -154.5477        0.9814187       -154.5478       0.01161568        121.0251
1.006                 0.01163021        119.9881        0.9813297       -155.4717        0.9813354       -155.4718       0.01161906        120.0217
1.012                 0.01163176        118.9866        0.9812463       -156.3956        0.9812521       -156.3958       0.01162089        119.0209
1.018                 0.01163176        117.9876        0.9811627       -157.3196        0.9811685       -157.3197       0.01162117        118.0225
1.024                  0.0116302        116.9912        0.9810793       -158.2436        0.9810851       -158.2437       0.01161989        117.0267
1.03                  0.01162707        115.9973        0.9809955       -159.1675        0.9810013       -159.1676       0.01161705        116.0333
1.036                 0.01162237        115.0059        0.9809119       -160.0914        0.9809176       -160.0915       0.01161264        115.0425
1.042                  0.0116161        114.0171         0.980828       -161.0153        0.9808336       -161.0154       0.01160666        114.0542
1.048                 0.01160826        113.0309         0.980744       -161.9392        0.9807497       -161.9393        0.0115991        113.0683
1.054                 0.01159884        112.0471          0.98066        -162.863        0.9806657       -162.8632       0.01158997         112.085
1.06                  0.01158783         111.066        0.9805759       -163.7869        0.9805815       -163.7871       0.01157925        111.1043
1.066                 0.01157525        110.0874        0.9804918       -164.7107        0.9804973       -164.7109       0.01156695         110.126
1.072                 0.01156107        109.1114        0.9804076       -165.6346        0.9804129       -165.6348       0.01155306        109.1503
1.078                 0.01154531        108.1379        0.9803231       -166.5584        0.9803285       -166.5586       0.01153758        108.1771
1.084                 0.01152795        107.1671        0.9802388       -167.4821         0.980244       -167.4823       0.01152051        107.2064
1.09                    0.011509        106.1987        0.9801544       -168.4059        0.9801595       -168.4061       0.01150184        106.2383
1.096                 0.01148846         105.233        0.9800697       -169.3297        0.9800747       -169.3299       0.01148157        105.2728
1.102                 0.01146632        104.2699        0.9799852       -170.2534        0.9799901       -170.2536       0.01145971        104.3098
1.108                 0.01144258        103.3094        0.9799004       -171.1771        0.9799053       -171.1773       0.01143624        103.3494
1.114                 0.01141724        102.3514        0.9798157       -172.1008        0.9798205        -172.101       0.01141117        102.3915
1.12                   0.0113903        101.3961        0.9797308       -173.0245        0.9797356       -173.0247       0.01138449        101.4362
1.126                 0.01136176        100.4434         0.979646       -173.9482        0.9796506       -173.9484       0.01135621        100.4835
1.132                 0.01133161        99.49325        0.9795612       -174.8718        0.9795656       -174.8721       0.01132632        99.53341
1.138                 0.01129986        98.54579        0.9794762       -175.7954        0.9794805       -175.7957       0.01129482        98.58589
1.144                 0.01126651        97.60093        0.9793913       -176.7191        0.9793954       -176.7193       0.01126172          97.641
1.15                  0.01123155        96.65876        0.9793062       -177.6426        0.9793103       -177.6429         0.011227        96.69871
1.156                 0.01119499         95.7192        0.9792211       -178.5662         0.979225       -178.5664       0.01119067        95.75906
1.162                 0.01115682        94.78232        0.9791361       -179.4898        0.9791398         -179.49       0.01115273        94.82205
1.168                 0.01111705        93.84811         0.979051        179.5867        0.9790546        179.5864       0.01111318        93.88769
1.174                 0.01107567        92.91659        0.9789658        178.6632        0.9789694        178.6629       0.01107202        92.95599
1.18                  0.01103268        91.98776        0.9788807        177.7397        0.9788841        177.7394       0.01102925        92.02698
1.186                 0.01098809        91.06166        0.9787956        176.8162        0.9787988         176.816       0.01098486        91.10065
1.192                  0.0109419        90.13828        0.9787104        175.8928        0.9787135        175.8925       0.01093887        90.17705
1.198                  0.0108941        89.21764        0.9786253        174.9693        0.9786283        174.9691       0.01089126        89.25616
1.204                  0.0108447        88.29975        0.9785401        174.0459         0.978543        174.0456       0.01084205        88.33801
1.21                  0.01079369        87.38466        0.9784551        173.1225        0.9784577        173.1223       0.01079122        87.42262
1.216                 0.01074108        86.47236        0.9783699        172.1991        0.9783725        172.1989       0.01073879        86.51003
1.222                 0.01068687        85.56288        0.9782848        171.2758        0.9782873        171.2755       0.01068474        85.60025
1.228                 0.01063106        84.65626        0.9781998        170.3524         0.978202        170.3522       0.01062909        84.69329
1.234                 0.01057365        83.75249        0.9781148        169.4291        0.9781168        169.4289       0.01057183        83.78919
1.24                  0.01051465        82.85163        0.9780297        168.5058        0.9780317        168.5056       0.01051297        82.88799
1.246                 0.01045404         81.9537        0.9779448        167.5825        0.9779467        167.5823       0.01045251        81.98969
1.252                 0.01039184        81.05873        0.9778599        166.6593        0.9778615         166.659       0.01039044        81.09437
1.258                 0.01032805        80.16675         0.977775         165.736        0.9777765        165.7358       0.01032677        80.20202
1.264                 0.01026266         79.2778        0.9776902        164.8128        0.9776917        164.8125        0.0102615         79.3127
1.27                  0.01019569        78.39191        0.9776054        163.8896        0.9776067        163.8893       0.01019464        78.42644
1.276                 0.01012712        77.50915        0.9775207        162.9664        0.9775219        162.9662       0.01012618        77.54328
1.282                 0.01005697        76.62954         0.977436        162.0432        0.9774371         162.043       0.01005613        76.66329
1.288                0.009985235        75.75314        0.9773514        161.1201        0.9773523        161.1198      0.009984482         75.7865
1.294                0.009911916        74.88001        0.9772669        160.1969        0.9772678        160.1967       0.00991125        74.91297
1.3                  0.009837017        74.01019        0.9771824        159.2738        0.9771831        159.2736       0.00983643        74.04276
1.306                0.009760543        73.14374        0.9770981        158.3507        0.9770987        158.3505      0.009760028        73.17592
1.312                0.009682492        72.28075        0.9770138        157.4276        0.9770143        157.4274      0.009682043        72.31255
1.318                 0.00960287        71.42126        0.9769296        156.5046          0.97693        156.5043      0.009602482        71.45267
1.324                 0.00952168        70.56537        0.9768455        155.5815        0.9768457        155.5813      0.009521346         70.5964
1.33                 0.009438922        69.71314        0.9767615        154.6585        0.9767616        154.6583      0.009438637        69.74382
1.336                0.009354603        68.86468        0.9766774        153.7354        0.9766775        153.7352      0.009354362        68.89498
1.342                0.009268724        68.02007        0.9765936        152.8124        0.9765936        152.8123      0.009268521        68.05001
1.348                 0.00918129        67.17942          0.97651        151.8894        0.9765097        151.8893       0.00918112        67.20901
1.354                0.009092306        66.34281        0.9764263        150.9665        0.9764261        150.9663      0.009092161        66.37207
1.36                 0.009001773        65.51041        0.9763427        150.0435        0.9763425        150.0434      0.009001652        65.53931
1.366                0.008909698        64.68229        0.9762593        149.1206        0.9762588        149.1204      0.008909595        64.71087
1.372                0.008816085         63.8586         0.976176        148.1977        0.9761754        148.1975      0.008815994        63.88687
1.378                0.008720938        63.03949        0.9760928        147.2748        0.9760921        147.2746      0.008720856        63.06749
1.384                0.008624261        62.22513        0.9760096        146.3519         0.976009        146.3517      0.008624185        62.25284
1.39                 0.008526063        61.41567        0.9759267         145.429        0.9759259        145.4288      0.008525988         61.4431
1.396                0.008426348        60.61128        0.9758438        144.5061        0.9758431         144.506      0.008426267        60.63848
1.402                0.008325121        59.81217         0.975761        143.5833        0.9757601        143.5831      0.008325034        59.83912
1.408                0.008222388        59.01855        0.9756784        142.6604        0.9756774        142.6603      0.008222292         59.0453
1.414                0.008118159        58.23062         0.975596        141.7376        0.9755949        141.7375      0.008118049        58.25718
1.42                 0.008012438        57.44865        0.9755135        140.8148        0.9755126        140.8147      0.008012311        57.47504
1.426                0.007905232         56.6729        0.9754313         139.892        0.9754301        139.8919      0.007905087        56.69914
1.432                0.007796552        55.90365         0.975349        138.9692         0.975348        138.9691      0.007796385        55.92976
1.438                0.007686405        55.14119        0.9752671        138.0464         0.975266        138.0463      0.007686213         55.1672
1.444                0.007574799        54.38588        0.9751852        137.1237        0.9751839        137.1236      0.007574582        54.41181
1.45                 0.007461746        53.63805        0.9751032        136.2009        0.9751022        136.2008        0.0074615        53.66393
1.456                0.007347253        52.89812        0.9750217        135.2782        0.9750205        135.2781      0.007346979        52.92397
1.462                0.007231333         52.1665          0.97494        134.3555         0.974939        134.3554      0.007231028        52.19235
1.468                0.007113997        51.44365        0.9748587        133.4328        0.9748576        133.4327       0.00711366        51.46954
1.474                0.006995258        50.73007        0.9747773        132.5101        0.9747762          132.51      0.006994887        50.75602
1.48                 0.006875128         50.0263        0.9746961        131.5874         0.974695        131.5873      0.006874723        50.05236
1.486                 0.00675362        49.33296         0.974615        130.6647         0.974614        130.6646       0.00675318        49.35918
1.492                 0.00663075        48.65069        0.9745341         129.742         0.974533         129.742      0.006630276        48.67708
1.498                0.006506535        47.98022        0.9744533        128.8193        0.9744522        128.8193      0.006506026        48.00682
1.504                 0.00638099        47.32233        0.9743727        127.8967        0.9743716        127.8967      0.006380446        47.34915
1.51                 0.006254134        46.67786        0.9742922         126.974        0.9742911         126.974      0.006253557        46.70498
1.516                0.006125988        46.04777        0.9742118        126.0514        0.9742106        126.0514      0.006125377        46.07523
1.522                0.005996572        45.43311        0.9741315        125.1288        0.9741304        125.1288      0.005995927          45.461
1.528                 0.00586591        44.83506        0.9740512        124.2062        0.9740502        124.2062      0.005865233        44.86338
1.534                0.005734027        44.25488        0.9739712        123.2836        0.9739702        123.2836      0.005733319        44.28367
1.54                 0.005600948        43.69397        0.9738913         122.361        0.9738903         122.361      0.005600211        43.72331
1.546                0.005466704        43.15396        0.9738115        121.4384        0.9738105        121.4384      0.005465939         43.1839
1.552                0.005331328        42.63657        0.9737318        120.5159        0.9737308        120.5159      0.005330537        42.66716
1.558                0.005194854        42.14379        0.9736522        119.5933        0.9736513        119.5933       0.00519404        42.17513
1.564                0.005057321        41.67782        0.9735727        118.6707        0.9735719        118.6708      0.005056487        41.70996
1.57                 0.004918773        41.24115        0.9734935        117.7482        0.9734926        117.7482      0.004917919        41.27416
1.576                0.004779255        40.83653        0.9734142        116.8256        0.9734134        116.8257      0.004778387        40.87055
1.582                0.004638822        40.46725        0.9733351        115.9031        0.9733344        115.9031       0.00463794        40.50228
1.588                0.004497531        40.13675        0.9732561        114.9806        0.9732554        114.9806      0.004496641        40.17297
1.594                0.004355449        39.84918        0.9731772         114.058        0.9731766        114.0581      0.004354554        39.88666
1.6                   0.00421265        39.60917        0.9730984        113.1356        0.9730978        113.1356      0.004211754        39.64804
1.606                0.004069218        39.42216        0.9730198        112.2131        0.9730192        112.2131      0.004068325         39.4625
1.612                0.003925249        39.29416        0.9729412        111.2906        0.9729407        111.2906      0.003924364        39.33616
1.618                0.003780852        39.23229        0.9728627        110.3681        0.9728622        110.3681      0.003779982        39.27611
1.624                0.003636155        39.24483        0.9727843        109.4456        0.9727839        109.4456      0.003635305        39.29056
1.63                 0.003491304        39.34124        0.9727061        108.5231        0.9727057        108.5232       0.00349048        39.38916
1.636                 0.00334647        39.53275         0.972628        107.6006        0.9726276        107.6007       0.00334568        39.58301
1.642                0.003201855        39.83238        0.9725499        106.6782        0.9725496        106.6782      0.003201106        39.88514
1.648                0.003057696        40.25547        0.9724719        105.7557        0.9724717        105.7558      0.003056997        40.31107
1.654                0.002914277        40.82018        0.9723941        104.8332        0.9723939        104.8333      0.002913637         40.8788
1.66                 0.002771938        41.54782        0.9723163        103.9108        0.9723162        103.9109      0.002771368        41.60979
1.666                0.002631089        42.46369        0.9722386        102.9884        0.9722386        102.9885      0.002630601        42.52928
1.672                0.002492229        43.59768         0.972161        102.0659        0.9721611         102.066      0.002491836        43.66722
1.678                0.002355965        44.98491        0.9720835        101.1435        0.9720836        101.1436      0.002355683        45.05864
1.684                0.002223046        46.66644        0.9720061        100.2211        0.9720063        100.2211      0.002222892         46.7447
1.69                 0.002094389        48.68967        0.9719288        99.29869         0.971929        99.29875      0.002094383        48.77262
1.696                0.001971128        51.10794        0.9718516        98.37626        0.9718518        98.37634      0.001971289        51.19565
1.702                0.001854646        53.97906        0.9717744        97.45388        0.9717748        97.45394      0.001854998        54.07138
1.708                0.001746625        57.36162        0.9716973        96.53148        0.9716978        96.53154      0.001747191        57.45803
1.714                0.001649066        61.30774        0.9716204         95.6091        0.9716209        95.60916       0.00164987        61.40732
1.72                 0.001564276         65.8516        0.9715435         94.6867        0.9715439        94.68676      0.001565338         65.9527
1.726                0.001494786         70.9931        0.9714667         93.7643        0.9714673        93.76435      0.001496121         71.0933
1.732                0.001443173        76.67955        0.9713899        92.84195        0.9713906          92.842      0.001444783         76.7758
1.738                0.001411758        82.79242        0.9713133        91.91955        0.9713139        91.91963      0.001413633        82.88127
1.744                0.001402257        89.14838        0.9712366         90.9972        0.9712374        90.99725       0.00140437        89.22665
1.75                 0.001415453        95.52169        0.9711601        90.07482        0.9711609        90.07488      0.001417763        95.58706
1.756                0.001451049        101.6835        0.9710837         89.1525        0.9710845        89.15255      0.001453508        101.7349
1.762                0.001507763        107.4423        0.9710073        88.23012        0.9710081        88.23018       0.00151032        107.4801
1.768                0.001583605        112.6694         0.970931        87.30777        0.9709319        87.30783      0.001586213        112.6949
1.774                0.001676233        117.3032        0.9708548        86.38543        0.9708557        86.38548      0.001678853        117.3183
1.78                 0.001783264        121.3367        0.9707786         85.4631        0.9707796        85.46316      0.001785864        121.3436
