# HZ S RI R 50
1000000000 -0.002604837195146889 -0.00675872344155637
1005478088 -0.002936550526384194 -0.007198919108424792
1010956176 -0.00289486733116882 -0.007796587269779364
1016434264 -0.0028919730917334662 -0.008129674947218073
1021912352 -0.002528400981845806 -0.008290179511297735
1027390440 -0.0028119325051042406 -0.009022160126297498
1032868528 -0.003007343417743948 -0.009179952443278105
1038346616 -0.002872861964314894 -0.009923022474103644
1043824704 -0.002944423364755252 -0.010248923964468313
1049302792 -0.003262951878947196 -0.010679928705678098
1054780880 -0.003046510596965801 -0.01100545042997074
1060258968 -0.0034317709305078433 -0.011335575228170806
1065737056 -0.0032864822761878867 -0.01198375936546306
1071215144 -0.003501241427612429 -0.012247137130510174
1076693232 -0.0038262286190655563 -0.012486022866233697
1082171320 -0.0041883937066884425 -0.01315614243321629
1087649408 -0.003924614462517185 -0.013472205750024658
1093127496 -0.0040982283355123945 -0.013874461364005683
1098605584 -0.004627243822015396 -0.014107447180735666
1104083672 -0.004958635699099297 -0.014599795568898816
1109561760 -0.004873154895638175 -0.014806904607235794
1115039848 -0.005365563048210195 -0.015209515635380326
1120517936 -0.005676077845795309 -0.015304804094886814
1125996024 -0.006739171498824871 -0.015441046693342972
1131474112 -0.00636845442816548 -0.016181689153818908
1136952200 -0.00667575636508227 -0.016165708848918964
1142430288 -0.007164980715374249 -0.016496635172557977
1147908376 -0.00774425962273058 -0.01692519832625675
1153386464 -0.008145939247738543 -0.016942182258327883
1158864552 -0.008403559506501138 -0.017083674244155658
1164342640 -0.009112290013585994 -0.017337509622475815
1169820728 -0.009912579979575373 -0.018147122361769973
1175298816 -0.009603335604886399 -0.01797952854251745
1180776904 -0.010846154502012343 -0.018429450493422685
1186254992 -0.01108760622537164 -0.018088334875397655
1191733080 -0.011842170243808155 -0.018571235622236126
1197211168 -0.012184369613092496 -0.018458372454848174
1202689256 -0.013170224970462148 -0.019070894821955536
1208167344 -0.013411370561814668 -0.01894587172685143
1213645432 -0.013893070893994915 -0.019380761938679866
1219123520 -0.014796208881440278 -0.01931045113827031
1224601608 -0.015276206385176365 -0.01954008031949524
1230079696 -0.015807412890167703 -0.019844179172433484
1235557784 -0.016890353526238844 -0.01937633760483307
1241035872 -0.017053269282545632 -0.019748995758258288
1246513960 -0.017931136417331642 -0.019699722670346226
1251992048 -0.01813117586289264 -0.019807025179399782
1257470136 -0.01874315402905439 -0.019932683928386336
1262948224 -0.01922057760339634 -0.01958470905361648
1268426312 -0.020054718674198058 -0.019779072975628646
1273904400 -0.020510931519058785 -0.019641071331621598
1279382488 -0.021793590048717146 -0.01928687963255686
1284860576 -0.021884902608274838 -0.019530355561671604
1290338664 -0.02241150609919614 -0.019348438239866966
1295816752 -0.023345161251635157 -0.019262113135120846
1301294840 -0.023628441123443505 -0.01898825199995358
1306772928 -0.024322224287460805 -0.0187629608764328
1312251016 -0.02476016446873902 -0.01866341270984263
1317729104 -0.025346999018679536 -0.018144866535785776
1323207192 -0.02606604371160522 -0.01836896531951394
1328685280 -0.02657297424750661 -0.01801312924845121
1334163368 -0.02735883230584686 -0.01800640067151286
1339641456 -0.027798239463849638 -0.01705098875714285
1345119544 -0.028328856452972503 -0.017265887429789177
1350597632 -0.028440346591847087 -0.016615636881395463
1356075720 -0.029011099957125416 -0.01624382185950921
1361553808 -0.029797571528137806 -0.015156117868822736
1367031896 -0.0299169272363286 -0.014559180216527672
1372509984 -0.030277521745199334 -0.014884670046530251
1377988072 -0.03131594715879867 -0.013699691479167601
1383466160 -0.031701097605102556 -0.013302136868117903
1388944248 -0.03175521075825668 -0.012781611286353066
1394422336 -0.03157830639566188 -0.012278358832646784
1399900424 -0.03252500739091917 -0.011882365367873092
1405378512 -0.03326769390916208 -0.01061335550859768
1410856600 -0.033372681755018 -0.010292159095516853
1416334688 -0.03416158790277293 -0.009445392430329429
1421812776 -0.034003767685940545 -0.008952260294694772
1427290864 -0.035003584896143594 -0.008125451218400574
1432768952 -0.03475658989764427 -0.007144328154861457
1438247040 -0.03513165070174096 -0.006750400496909818
1443725128 -0.03574601999476955 -0.005976534607790135
1449203216 -0.035945252597690984 -0.005175220601343856
1454681304 -0.03626489020486134 -0.004783411358151906
1460159392 -0.0366391665548268 -0.003923920434317613
1465637480 -0.036755180981831885 -0.003297337167229722
1471115568 -0.036748780229152726 -0.002131253909617331
1476593656 -0.037181939989196264 -0.0018066384136395859
1482071744 -0.03709948505241751 -0.0002508368537580912
1487549832 -0.03719814325153347 0.00045533369340141803
1493027920 -0.037271522899952066 0.0009508512487034848
1498506008 -0.0374441170937075 0.0022006376151247112
1503984096 -0.03755533333677806 0.002150877889530771
1509462184 -0.03765201506936814 0.0034029362258849176
1514940272 -0.03745073522892672 0.004100568120775308
1520418360 -0.03765245532273535 0.005372215735532212
1525896448 -0.037521829339709725 0.005587345155387964
1531374536 -0.03771087900901996 0.006796405465484101
1536852624 -0.037163356550274966 0.007643132902462207
1542330712 -0.03703111089730817 0.00818696149933357
1547808800 -0.03715743392923504 0.009150436061747334
1553286888 -0.03707506013188824 0.010261319996941682
1558764976 -0.03653081730161729 0.010499079775961073
1564243064 -0.03599470583633535 0.011371283491256119
1569721152 -0.036250955275044815 0.012082098980275612
1575199240 -0.0363846781385559 0.012458547785826
1580677328 -0.03544398731741807 0.013772254731250617
1586155416 -0.0346219761224176 0.014353316251695152
1591633504 -0.03441055368117934 0.014518468705190954
1597111592 -0.0334824988054191 0.01591710395545377
1602589680 -0.03300170926821978 0.016415326201960307
1608067768 -0.032708933705638606 0.017163427609556223
1613545856 -0.03205132172570726 0.017526053587806185
1619023944 -0.03130714956354406 0.018340798823890347
1624502032 -0.030804913029229813 0.019013494248769747
1629980120 -0.02981326120479304 0.01911604749089016
1635458208 -0.029079334471058472 0.020449622925025536
1640936296 -0.028381537329552686 0.020634244395540593
1646414384 -0.028049312306981048 0.02181572994774296
1651892472 -0.026742506993192968 0.021939340123786816
1657370560 -0.026139369550000003 0.023309953407537363
1662848648 -0.025547963431881978 0.023748614282648902
1668326736 -0.024960379867066205 0.023991650778436558
1673804824 -0.023588712702804087 0.024292439374049343
1679282912 -0.022146377614604255 0.024478928624311176
1684761000 -0.021662936073048433 0.02517796970069737
1690239088 -0.02178087135493331 0.026394636798167136
1695717176 -0.020717145998238005 0.02650075005853836
1701195264 -0.01950649803269675 0.027068281844793925
1706673352 -0.019013272233025885 0.027542258914919786
1712151440 -0.017726249826886246 0.027692927939732583
1717629528 -0.016789265882841083 0.027617801940979004
1723107616 -0.016160926614886828 0.027804716199635766
1728585704 -0.014482139676516959 0.028343656919355437
1734063792 -0.013987978682909791 0.029025747950553262
1739541880 -0.013179026475588213 0.029116620304027577
1745019968 -0.012911682226881476 0.028705377862998465
1750498056 -0.01141512122993492 0.029043855285826238
1755976144 -0.010033475752518863 0.02911738882758059
1761454232 -0.008559837886759868 0.02982654993205196
1766932320 -0.00811530335731208 0.02930879116188123
1772410408 -0.007306206372740371 0.029565191544088203
1777888496 -0.005791694528031914 0.030115367658575233
1783366584 -0.005361379171364484 0.029131690465977217
1788844672 -0.004086222869860205 0.029160879985054365
1794322760 -0.0027683919663024988 0.029196147206019707
1799800848 -0.0022249156125406623 0.02913103370807845
1805278936 -0.0012330845257734323 0.027881272650015124
1810757024 -0.00016793479263652237 0.028290962555999402
1816235112 0.00027381239945232 0.02879306144962129
1821713200 0.0015128521296861163 0.02782953043742366
1827191288 0.0027039624518607787 0.02699590422754308
1832669376 0.0035988483786355543 0.026971623676692622
1838147464 0.0042434272891253184 0.02633566227470843
1843625552 0.005333124876734192 0.025865739236282593
1849103640 0.007988730100796518 0.025426597152295314
1854581728 0.007606878756414206 0.024970196856252378
1860059816 0.008304191485431713 0.023976926515488838
1865537904 0.009934353968497898 0.02304295098164987
1871015992 0.009979758272102948 0.022654109353678207
1876494080 0.011468397816123174 0.022049678383404537
1881972168 0.012953937431708158 0.021191172319746605
1887450256 0.013307509096756768 0.02033002777691928
1892928344 0.014474606909224218 0.020289950726392714
1898406432 0.014908020319152664 0.0185382334724691
1903884520 0.016176578956468995 0.018245472842919577
1909362608 0.01711432628637516 0.01695766049360347
1914840696 0.017457162036923032 0.016716747767375632
1920318784 0.018264280979411518 0.015226786954996909
1925796872 0.019278587873801916 0.014453792238425533
1931274960 0.019833617099086927 0.013092810316840125
1936753048 0.020686184223172945 0.012154116192723097
1942231136 0.021163455175088858 0.01196224001966972
1947709224 0.0216554350039898 0.011179117755978673
1953187312 0.022967762234758972 0.009273008124358773
1958665400 0.023201343847082185 0.008766408101743643
1964143488 0.023988303983422936 0.0075571547772885
1969621576 0.025098096149427058 0.0060858881023622
1975099664 0.02505691741100739 0.005507386854718128
1980577752 0.025562210425715427 0.004299271295901583
1986055840 0.025706339570379867 0.0035627858765371295
1991533928 0.02639628220148062 0.0020413856345608554
1997012016 0.026057398984841374 0.0013004675408054744
2002490104 0.027005972412268903 0.0004570191717661015
2007968192 0.026821405524167095 -0.000739841973830091
2013446280 0.027556741277533322 -0.0021717304817933463
2018924368 0.027494329559492346 -0.0032464707739804956
2024402456 0.02747120224074788 -0.0043520397552844715
2029880544 0.027721895527090337 -0.005392936293561685
2035358632 0.026978908065081332 -0.007255033982558333
2040836720 0.027748075842172152 -0.007687733894152677
2046314808 0.027674542777384945 -0.008924955877415635
2051792896 0.027380664000634727 -0.01069362955287291
2057270984 0.027691545462762118 -0.011092815862035487
2062749072 0.027520267713097925 -0.012578466638551406
2068227160 0.02681072679738648 -0.013924466331281384
2073705248 0.026683665553331515 -0.015358802247229256
2079183336 0.026320297093595 -0.016553736911412324
2084661424 0.026071745069882867 -0.018038342249526503
2090139512 0.025850621803031763 -0.020184431644328784
2095617600 0.025295733866904726 -0.020817090563914467
2101095688 0.025399990870253835 -0.022002254819099492
2106573776 0.024591446942943854 -0.02370604405317721
2112051864 0.0234632895434551 -0.023376070803465716
2117529952 0.024015604965641403 -0.0262102079838043
2123008040 0.02329976664957015 -0.0271431791036212
2128486128 0.021944426845214915 -0.027817714083681225
2133964216 0.0223887664566366 -0.02897154807193293
2139442304 0.021828449034065448 -0.030498255769395896
2144920392 0.020913244799820593 -0.03111889854496985
2150398480 0.019497423182714416 -0.032867396795841226
2155876568 0.019851634769993153 -0.03363425980436052
2161354656 0.017576883810982543 -0.03456870520614241
2166832744 0.017699836811515192 -0.03549346703462211
2172310832 0.01698774470844253 -0.03635197636084195
2177788920 0.017237114615951926 -0.03705176929250491
2183267008 0.014451090330404487 -0.03904685671765214
2188745096 0.014828342906759363 -0.03839709829129429
2194223184 0.013757937629195983 -0.039922110177933526
2199701272 0.01254251328187318 -0.04173708569465503
2205179360 0.011637366014117835 -0.042474677260562775
2210657448 0.010852917245475604 -0.0432521217811992
2216135536 0.009813576257853155 -0.04434337143776834
2221613624 0.009293240677372302 -0.04429921353052518
2227091712 0.008000532921932282 -0.04442753422681664
2232569800 0.006944635526187059 -0.04605855246108681
2238047888 0.005778379182797881 -0.04711184337469918
2243525976 0.004843608738173731 -0.04635357597437091
2249004064 0.004153344060010123 -0.047829678616624245
2254482152 0.003004087537424335 -0.04839286258348037
2259960240 0.0018247727085275466 -0.04935995381961284
2265438328 6.481174572278363e-05 -0.04817903375764
2270916416 -0.0010923513644487367 -0.04912369884604911
2276394504 -0.0023439883803912554 -0.0493292520613355
2281872592 -0.004240248860505112 -0.04949375999347279
2287350680 -0.005107129667176989 -0.04965088372832202
2292828768 -0.005597215533864373 -0.05012300175189452
2298306856 -0.006310855701362951 -0.05012670994801445
2303784944 -0.008284607027031625 -0.050129479289345406
2309263032 -0.008587645177850406 -0.050101876054901094
2314741120 -0.011750223355068694 -0.05071405563869874
2320219208 -0.012078990500737071 -0.05011934942407571
2325697296 -0.014311018354556601 -0.05090318663314986
2331175384 -0.014816265847578088 -0.05076380785445327
2336653472 -0.01697866605725904 -0.051094217096031395
2342131560 -0.017420210194729637 -0.05057664383269668
2347609648 -0.018855199540568104 -0.05004673290418652
2353087736 -0.020057872966664014 -0.04980962011725623
2358565824 -0.0214280612906486 -0.049245435345467194
2364043912 -0.022122637914574358 -0.05103362382861799
2369522000 -0.024158498449138678 -0.048751206391922416
2375000088 -0.023936249972511297 -0.051553919573134224
2380478176 -0.026593203489686475 -0.048857337699126376
2385956264 -0.02664298572087569 -0.04904559058395023
2391434352 -0.02841460909129758 -0.04872844152943774
2396912440 -0.029511751789288665 -0.047807824398874404
2402390528 -0.03064545012276215 -0.04779503924510227
2407868616 -0.0307210372485372 -0.04786986452759082
2413346704 -0.031977180377308845 -0.046965819458292674
2418824792 -0.03147476442643038 -0.04686268844872211
2424302880 -0.03359144730338474 -0.04595780716682211
2429780968 -0.03591396984291515 -0.04510548220143888
2435259056 -0.03470373870368076 -0.044697502659781646
2440737144 -0.03774014919675035 -0.044360609061232625
2446215232 -0.03827340381963703 -0.04344552419382267
2451693320 -0.03906272019722661 -0.042710961723029635
2457171408 -0.03967132540498879 -0.04241807987729862
2462649496 -0.04005472270631043 -0.04153445917015659
2468127584 -0.04107818342478033 -0.04077509366017742
2473605672 -0.04246731810088153 -0.04138214876516145
2479083760 -0.04132525019023797 -0.037865541375443894
2484561848 -0.04281159083123942 -0.038414135178145584
2490039936 -0.04407922849725491 -0.03832504420030065
2495518024 -0.043793095006990995 -0.035895225353464
2500996112 -0.04487230318101243 -0.03519952047032284
2506474200 -0.04543253033793502 -0.035280188506147024
2511952288 -0.04593852395263294 -0.03420910133467341
2517430376 -0.04599799277130992 -0.034252670021400755
2522908464 -0.04629390792584474 -0.031542470052528464
2528386552 -0.04698649789176731 -0.03095644357839543
2533864640 -0.04708900131177409 -0.03027637216508842
2539342728 -0.04741958460568889 -0.029664109131666408
2544820816 -0.0480308706016903 -0.027556864284705204
2550298904 -0.047293728548171314 -0.028191558133271597
2555776992 -0.04815927370012671 -0.026609692447206762
2561255080 -0.049391062625020354 -0.024973556236407554
2566733168 -0.04843826803702019 -0.024369186653446034
2572211256 -0.04909234242215772 -0.02258207932161233
2577689344 -0.049382593018757026 -0.02228028158114057
2583167432 -0.049548936860801286 -0.021150112974877924
2588645520 -0.049133104369626875 -0.0204500760723261
2594123608 -0.04749249933735794 -0.018867981652898075
2599601696 -0.049383121940686704 -0.018601276305114964
2605079784 -0.05039681779657392 -0.017320406777826203
2610557872 -0.04911936486324701 -0.016415465267844563
2616035960 -0.05037104554700123 -0.015018059521793511
2621514048 -0.049509180271961564 -0.015477442950180845
2626992136 -0.04945991335867026 -0.014350039712113636
2632470224 -0.0490975142901865 -0.01299945237968556
2637948312 -0.04903053750442273 -0.013431232580013629
2643426400 -0.04859236027123657 -0.01171586315125433
2648904488 -0.048117419142328116 -0.01137240113400335
2654382576 -0.0479792326991601 -0.010971065675353988
2659860664 -0.04781476295146158 -0.011064221344723535
2665338752 -0.047389138590891486 -0.00864352225785732
2670816840 -0.04624051443546091 -0.00981313087812755
2676294928 -0.04621783624407499 -0.008105341214457612
2681773016 -0.04515946186935021 -0.008189338185378186
2687251104 -0.04515521831295347 -0.007380907349122126
2692729192 -0.04495379005731942 -0.006661095062869224
2698207280 -0.0449350472957826 -0.006301534729061423
2703685368 -0.04329677726121117 -0.005708006161974104
2709163456 -0.04459902621577781 -0.005003044842662746
2714641544 -0.04326400840491448 -0.0045542876298666265
2720119632 -0.04161162270433039 -0.004266638292835493
2725597720 -0.04129008932163809 -0.004645941574956476
2731075808 -0.04148048538361626 -0.004497947044821265
2736553896 -0.04058911754694464 -0.0034492225059928063
2742031984 -0.03807279881372041 -0.002780188404386316
2747510072 -0.03915285037778015 -0.003896069188991257
2752988160 -0.03676663603359789 -0.0030883766130519403
2758466248 -0.03681489033819937 -0.003357307658010965
2763944336 -0.03480008379146289 -0.0018482475269113144
2769422424 -0.03546868070140899 -0.0024364688177499097
2774900512 -0.033868900623845795 -0.0012765381060262405
2780378600 -0.0325697845975064 -0.0012480533622982106
2785856688 -0.032652002459292014 -0.0016801285338302766
2791334776 -0.03246670052384548 -0.0012684165686605567
2796812864 -0.030940528413989653 -0.001555942648624254
2802290952 -0.029789667012844086 -0.00206806090368015
2807769040 -0.02953863505418952 -0.0006861202470758062
2813247128 -0.028056815164940973 -0.0014827859721308829
2818725216 -0.02828102716085958 -0.0016853433220812963
2824203304 -0.02691175898208946 -0.0016222213109361805
2829681392 -0.0274021081080659 -0.0015422009980346307
2835159480 -0.026214056495127543 -0.002139714724391313
2840637568 -0.02527994271358061 -0.0022436374907899483
2846115656 -0.02481245420120248 -0.0025834508928810522
2851593744 -0.022380192148896236 -0.0031091743306767704
2857071832 -0.02388123835669435 -0.002721118246740937
2862549920 -0.022464996853418285 -0.003757509514579969
2868028008 -0.02242246136126113 -0.003917054841001236
2873506096 -0.021716660295585492 -0.0038149264187210723
2878984184 -0.02140065602538043 -0.005123513888231346
2884462272 -0.020812880176191866 -0.004734864738210597
2889940360 -0.021625175090306595 -0.006403796895384586
2895418448 -0.020426567691392082 -0.0067533376981399286
2900896536 -0.02050780961187146 -0.007895974519529933
2906374624 -0.019471718211236614 -0.007506904238859225
2911852712 -0.01928100282340859 -0.009080308511822316
2917330800 -0.018552951997415194 -0.007625220224651088
2922808888 -0.019096083092401524 -0.01029860239585233
2928286976 -0.01853863580618056 -0.01194389581070611
2933765064 -0.018557455307259694 -0.011017147842496437
2939243152 -0.018506996851034515 -0.011638731071741607
2944721240 -0.01751685753699228 -0.013955193154523884
2950199328 -0.017854256348555968 -0.014156178742350154
2955677416 -0.017835559135600674 -0.015382415339649047
2961155504 -0.017322253230852364 -0.016548382402632
2966633592 -0.01695877494799961 -0.017784293442162043
2972111680 -0.01896398731104501 -0.01749485854236761
2977589768 -0.017082549352882025 -0.01924437647942704
2983067856 -0.016356621591936817 -0.02021126823107801
2988545944 -0.017441868392081686 -0.021149825704624828
2994024032 -0.017684769983983262 -0.022292630847253452
2999502120 -0.017939085671082315 -0.023283742553322096
3004980208 -0.015300362545857092 -0.02377313427701892
3010458296 -0.018051621383855184 -0.02582317746837146
3015936384 -0.01704874162249011 -0.025540287556727326
3021414472 -0.017470712633973023 -0.027296814254213358
3026892560 -0.018494323235541964 -0.028934309932761637
